reg[0x0008] = 0x00000000
reg[0x000c] = 0x18000000
reg[0x0010] = 0x000001ff
reg[0x0014] = 0x00000000
reg[0x0018] = 0x00000000
reg[0x001c] = 0x00000000
reg[0x0030] = 0x008600ef
reg[0x0034] = 0x0012000d
reg[0x0038] = 0x00000303
reg[0x003c] = 0x00000000
reg[0x0040] = 0x000000ff
reg[0x0044] = 0x0000001c
reg[0x0048] = 0x00000000
reg[0x004c] = 0x00000000
reg[0x0050] = 0x00000000
reg[0x0054] = 0x00000000
reg[0x0058] = 0x00000000
reg[0x005c] = 0x00000000
reg[0x0060] = 0x00000000
reg[0x0064] = 0x00000000
reg[0x0068] = 0x00000000
reg[0x006c] = 0x00000000
reg[0x0070] = 0x00000000
reg[0x0074] = 0x00000000
reg[0x0078] = 0x00000000
reg[0x007c] = 0x00000000
reg[0x0080] = 0x00000000
reg[0x0084] = 0x00000000
reg[0x0088] = 0x00000000
reg[0x008c] = 0x00000000
reg[0x0090] = 0x00000000
reg[0x0094] = 0x00000000
reg[0x0098] = 0x00000000
reg[0x009c] = 0x00000000
reg[0x00a0] = 0x00000000
reg[0x00a4] = 0x00000000
reg[0x00a8] = 0x00000000
reg[0x00ac] = 0x00000000
reg[0x00b0] = 0x00000000
reg[0x00b4] = 0x00000000
reg[0x00b8] = 0x00000000
reg[0x00bc] = 0x00000000
reg[0x00c0] = 0x00000000
reg[0x00c4] = 0x00000000
reg[0x00c8] = 0x00000000
reg[0x00cc] = 0x00000000
reg[0x00d0] = 0x00000000
reg[0x00d4] = 0x00000000
reg[0x00d8] = 0x00000000
reg[0x00dc] = 0x00000000
reg[0x00e0] = 0x00000000
reg[0x00e4] = 0x00000000
reg[0x00e8] = 0x00000000
reg[0x00ec] = 0x00000000
reg[0x00f0] = 0x00000000
reg[0x00f4] = 0x00000000
reg[0x00f8] = 0x00000000
reg[0x00fc] = 0x00000000
reg[0x0100] = 0x00000000
reg[0x0104] = 0x00000000
reg[0x0108] = 0x00000000
reg[0x010c] = 0x00000000
reg[0x0110] = 0x00000000
reg[0x0114] = 0x03b00770
reg[0x0118] = 0x00000000
reg[0x011c] = 0x01000000
reg[0x0120] = 0x02000000
reg[0x0124] = 0x05000000
reg[0x0128] = 0x19000000
reg[0x012c] = 0x1a000000
reg[0x0130] = 0x1b000000
reg[0x0134] = 0x1c000000
reg[0x0138] = 0x08000000
reg[0x013c] = 0x09000000
reg[0x0140] = 0x0a000000
reg[0x0144] = 0x0b000000
reg[0x0148] = 0x0c000000
reg[0x014c] = 0x0f000000
reg[0x0150] = 0x0d000000
reg[0x0154] = 0x0d000000
reg[0x0158] = 0x0e000000
reg[0x015c] = 0x00000c8a
reg[0x0160] = 0x00000000
reg[0x0164] = 0x00002f77
reg[0x0168] = 0x00080306
reg[0x016c] = 0x0002a07d
reg[0x0170] = 0x00000000
reg[0x0174] = 0x00000000
reg[0x0178] = 0x00000000
reg[0x017c] = 0x00000000
reg[0x0180] = 0x00000000
reg[0x0184] = 0x00000000
reg[0x0188] = 0x00000000
reg[0x018c] = 0x00000000
reg[0x0190] = 0x03341002
reg[0x0194] = 0x00000000
reg[0x0198] = 0x000800c3
reg[0x019c] = 0x00000001
reg[0x01a0] = 0x00170100
reg[0x01a4] = 0x000361cc
reg[0x01a8] = 0x8600c120
reg[0x01ac] = 0x0e00b447
reg[0x01b0] = 0x00010002
reg[0x01b4] = 0x00400001
reg[0x01b8] = 0x00000000
reg[0x01c0] = 0x00000000
reg[0x01c4] = 0x00000000
reg[0x01c8] = 0x00000000
reg[0x01cc] = 0x00000000
reg[0x01d0] = 0x00000000
reg[0x01d4] = 0x00000000
reg[0x01d8] = 0x00000000
reg[0x01dc] = 0x00000000
reg[0x01e0] = 0x00000000
reg[0x01e4] = 0x00000000
reg[0x01e8] = 0x00000000
reg[0x01ec] = 0x00000000
reg[0x01f0] = 0x00000000
reg[0x01f4] = 0x00000000
reg[0x01f8] = 0x00000000
reg[0x01fc] = 0x00000000
reg[0x0200] = 0x00000000
reg[0x0204] = 0x00000000
reg[0x0208] = 0x00000000
reg[0x020c] = 0x00000000
reg[0x0004] = 0x00000100
